T1AF0 000:007.703   SEGGER J-Link V7.80c Log File
T1AF0 000:007.898   DLL Compiled: Sep 27 2022 16:01:16
T1AF0 000:007.904   Logging started @ 2024-07-08 09:07
T1AF0 000:007.909 - 7.912ms
T1AF0 000:007.920 JLINK_SetWarnOutHandler(...)
T1AF0 000:007.927 - 0.009ms
T1AF0 000:007.933 JLINK_OpenEx(...)
T1AF0 000:009.167   Firmware: J-Link OB-STM32F072-CortexM compiled May  6 2021 15:30:00
T1AF0 000:009.463   Firmware: J-Link OB-STM32F072-CortexM compiled May  6 2021 15:30:00
T1AF0 000:009.620   Decompressing FW timestamp took 110 us
T1AF0 000:013.882   Hardware: V1.00
T1AF0 000:013.895   S/N: 86520001
T1AF0 000:013.903   OEM: SEGGER
T1AF0 000:013.911   Feature(s): JFlash, JFlashBP, JFlashDL, GDB
T1AF0 000:015.031   TELNET listener socket opened on port 19021
T1AF0 000:015.149   WEBSRV WEBSRV_Init(): Starting webserver thread(s)
T1AF0 000:015.274   WEBSRV Webserver running on local port 19080
T1AF0 000:019.450 - 11.526ms returns "O.K."
T1AF0 000:019.479 JLINK_GetEmuCaps()
T1AF0 000:019.486 - 0.010ms returns 0xB8EA5A33
T1AF0 000:019.498 JLINK_TIF_GetAvailable(...)
T1AF0 000:019.666 - 0.175ms
T1AF0 000:019.681 JLINK_SetErrorOutHandler(...)
T1AF0 000:019.686 - 0.007ms
T1AF0 000:019.708 JLINK_ExecCommand("ProjectFile = "C:\ming\source\ING920_SDK\JLinkSettings.ini"", ...). 
T1AF0 000:027.737   XML file found at: C:\Users\ming\AppData\Roaming\SEGGER\JLinkDevices\JLinkDevices.xml
T1AF0 000:027.816   C:\Users\ming\AppData\Roaming\SEGGER\JLinkDevices\JLinkDevices.xml evaluated successfully.
T1AF0 000:027.824     Device entry created:  ING9188xx
T1AF0 000:027.830       ChipInfo:
T1AF0 000:027.837         Vendor:          INGCHIPS
T1AF0 000:027.845         Name:            ING9188xx
T1AF0 000:027.853         WorkRAMAddr:     0x20000000
T1AF0 000:027.861         WorkRAMSize:     0x00010000
T1AF0 000:027.875         Core:            JLINK_CORE_CORTEX_M3_R2P1
T1AF0 000:027.883       FlashBankInfo:
T1AF0 000:027.891         Name:            eFlash
T1AF0 000:027.898         BaseAddr:        0x00004000
T1AF0 000:027.955         AlwaysPresent:   1
T1AF0 000:027.964         LoaderInfo:
T1AF0 000:027.971           Name:            eFlash
T1AF0 000:027.979           MaxSize:         0x00084000
T1AF0 000:027.987           Loader:          C:\Users\ming\AppData\Roaming\SEGGER\JLinkDevices\Devices\Ingchips\ING91800\Ingchips918xx.elf
T1AF0 000:027.994           LoaderType:      FLASH_ALGO_TYPE_OPEN
T1AF0 000:028.012     Device entry created:  ING9168xx
T1AF0 000:028.017       ChipInfo:
T1AF0 000:028.024         Vendor:          INGCHIPS
T1AF0 000:028.032         Name:            ING9168xx
T1AF0 000:028.039         WorkRAMAddr:     0x20000000
T1AF0 000:028.048         WorkRAMSize:     0x00008000
T1AF0 000:028.061         Core:            JLINK_CORE_CORTEX_M4
T1AF0 000:028.093         Script:          C:\Users\ming\AppData\Roaming\SEGGER\JLinkDevices\Devices\Ingchips\ING91600\JlinkSettings.jlinkscript
T1AF0 000:028.102       FlashBankInfo:
T1AF0 000:028.109         Name:            eFlash
T1AF0 000:028.117         BaseAddr:        0x02000000
T1AF0 000:028.164         AlwaysPresent:   1
T1AF0 000:028.172         LoaderInfo:
T1AF0 000:028.179           Name:            eFlash
T1AF0 000:028.187           MaxSize:         0x00200000
T1AF0 000:028.194           Loader:          C:\Users\ming\AppData\Roaming\SEGGER\JLinkDevices\Devices\Ingchips\ING91600\ING91600.FLM
T1AF0 000:028.202           LoaderType:      FLASH_ALGO_TYPE_OPEN
T1AF0 000:028.216     Device entry created:  ING920xx
T1AF0 000:028.222       ChipInfo:
T1AF0 000:028.229         Vendor:          INGCHIPS
T1AF0 000:028.236         Name:            ING920xx
T1AF0 000:028.243         WorkRAMAddr:     0x20000000
T1AF0 000:028.251         WorkRAMSize:     0x00008000
T1AF0 000:028.259         Core:            JLINK_CORE_CORTEX_M3_R2P1
T1AF0 000:028.287         Script:          C:\Users\ming\AppData\Roaming\SEGGER\JLinkDevices\Devices\Ingchips\ING91600\JlinkSettings.jlinkscript
T1AF0 000:028.296       FlashBankInfo:
T1AF0 000:028.303         Name:            eFlash
T1AF0 000:028.351         BaseAddr:        0x00002000
T1AF0 000:028.409         AlwaysPresent:   1
T1AF0 000:028.483   Ref file found at: C:\Keil_v5\ARM\Segger\JLinkDevices.ref
T1AF0 000:028.552   REF file references invalid XML file: C:\Program Files\SEGGER\JLink\JLinkDevices.xml
T1AF0 000:028.709   Device "CORTEX-M3" selected.
T1AF0 000:028.925 - 9.221ms returns 0x00
T1AF0 000:028.942 JLINK_ExecCommand("Device = ING91800", ...). 
T1AF0 000:029.038   Device "CORTEX-M3" selected.
T1AF0 000:029.226 - 0.280ms returns 0x00
T1AF0 000:029.235 JLINK_ExecCommand("DisableConnectionTimeout", ...). 
T1AF0 000:029.243 - 0.004ms returns 0x01
T1AF0 000:029.249 JLINK_GetHardwareVersion()
T1AF0 000:029.254 - 0.007ms returns 10000
T1AF0 000:029.261 JLINK_GetDLLVersion()
T1AF0 000:029.266 - 0.007ms returns 78003
T1AF0 000:029.271 JLINK_GetOEMString(...)
T1AF0 000:029.280 JLINK_GetFirmwareString(...)
T1AF0 000:029.285 - 0.007ms
T1AF0 000:029.301 JLINK_GetDLLVersion()
T1AF0 000:029.306 - 0.007ms returns 78003
T1AF0 000:029.312 JLINK_GetCompileDateTime()
T1AF0 000:029.317 - 0.007ms
T1AF0 000:029.326 JLINK_GetFirmwareString(...)
T1AF0 000:029.331 - 0.007ms
T1AF0 000:029.339 JLINK_GetHardwareVersion()
T1AF0 000:029.344 - 0.007ms returns 10000
T1AF0 000:029.352 JLINK_GetSN()
T1AF0 000:029.357 - 0.007ms returns 86520001
T1AF0 000:029.365 JLINK_GetOEMString(...)
T1AF0 000:029.381 JLINK_TIF_Select(JLINKARM_TIF_SWD)
T1AF0 000:029.870 - 0.498ms returns 0x00
T1AF0 000:029.885 JLINK_HasError()
T1AF0 000:029.906 JLINK_SetSpeed(20000)
T1AF0 000:029.982 - 0.081ms
T1AF0 000:029.993 JLINK_GetId()
T1AF0 000:030.775   Found SW-DP with ID 0x2BA01477
T1AF0 000:034.400   Old FW that does not support reading DPIDR via DAP jobs
T1AF0 000:037.998   DPv0 detected
T1AF0 000:038.018   CoreSight SoC-400 or earlier
T1AF0 000:038.035   Scanning AP map to find all available APs
T1AF0 000:040.373   AP[1]: Stopped AP scan as end of AP map has been reached
T1AF0 000:040.390   AP[0]: AHB-AP (IDR: 0x24770011)
T1AF0 000:040.400   Iterating through AP map to find AHB-AP to use
T1AF0 000:044.377   AP[0]: Core found
T1AF0 000:044.397   AP[0]: AHB-AP ROM base: 0xE00FF000
T1AF0 000:046.384   CPUID register: 0x412FC231. Implementer code: 0x41 (ARM)
T1AF0 000:046.402   Found Cortex-M3 r2p1, Little endian.
T1AF0 000:146.991   -- Max. mem block: 0x00002290
T1AF0 000:147.142   CPU_ReadMem(4 bytes @ 0xE000EDF0)
T1AF0 000:147.741   CPU_WriteMem(4 bytes @ 0xE000EDF0)
T1AF0 000:148.143   CPU_ReadMem(4 bytes @ 0xE0002000)
T1AF0 000:148.548   FPUnit: 6 code (BP) slots and 2 literal slots
T1AF0 000:148.560   CPU_ReadMem(4 bytes @ 0xE000EDFC)
T1AF0 000:148.990   CPU_WriteMem(4 bytes @ 0xE000EDFC)
T1AF0 000:149.387   CPU_ReadMem(4 bytes @ 0xE0001000)
T1AF0 000:149.786   CPU_WriteMem(4 bytes @ 0xE0001000)
T1AF0 000:150.194   CPU_ReadMem(4 bytes @ 0xE000ED88)
T1AF0 000:150.596   CPU_WriteMem(4 bytes @ 0xE000ED88)
T1AF0 000:151.057   CPU_ReadMem(4 bytes @ 0xE000ED88)
T1AF0 000:151.466   CPU_WriteMem(4 bytes @ 0xE000ED88)
T1AF0 000:151.889   CoreSight components:
T1AF0 000:151.917   ROMTbl[0] @ E00FF000
T1AF0 000:151.931   CPU_ReadMem(64 bytes @ 0xE00FF000)
T1AF0 000:152.991   CPU_ReadMem(32 bytes @ 0xE000EFE0)
T1AF0 000:153.645   [0][0]: E000E000 CID B105E00D PID 000BB000 SCS
T1AF0 000:153.657   CPU_ReadMem(32 bytes @ 0xE0001FE0)
T1AF0 000:154.313   [0][1]: E0001000 CID B105E00D PID 003BB002 DWT
T1AF0 000:154.327   CPU_ReadMem(32 bytes @ 0xE0002FE0)
T1AF0 000:155.017   [0][2]: E0002000 CID B105E00D PID 002BB003 FPB
T1AF0 000:155.031   CPU_ReadMem(32 bytes @ 0xE0000FE0)
T1AF0 000:155.695   [0][3]: E0000000 CID B105E00D PID 003BB001 ITM
T1AF0 000:155.710   CPU_ReadMem(32 bytes @ 0xE0040FE0)
T1AF0 000:156.369   [0][4]: E0040000 CID B105900D PID 003BB923 TPIU-Lite
T1AF0 000:156.786 - 126.800ms returns 0x2BA01477
T1AF0 000:156.806 JLINK_GetDLLVersion()
T1AF0 000:156.815 - 0.013ms returns 78003
T1AF0 000:156.826 JLINK_CORE_GetFound()
T1AF0 000:156.834 - 0.012ms returns 0x30000FF
T1AF0 000:156.846 JLINK_GetDebugInfo(0x100 = JLINKARM_ROM_TABLE_ADDR_INDEX)
T1AF0 000:156.864   Value=0xE00FF000
T1AF0 000:156.878 - 0.036ms returns 0
T1AF0 000:156.934 JLINK_GetDebugInfo(0x100 = JLINKARM_ROM_TABLE_ADDR_INDEX)
T1AF0 000:156.944   Value=0xE00FF000
T1AF0 000:156.956 - 0.026ms returns 0
T1AF0 000:156.966 JLINK_GetDebugInfo(0x101 = JLINKARM_DEBUG_INFO_ETM_ADDR_INDEX)
T1AF0 000:156.974   Value=0x00000000
T1AF0 000:156.986 - 0.024ms returns 0
T1AF0 000:157.003 JLINK_ReadMemEx(0xE0041FF0, 0x10 Bytes, Flags = 0x02000004)
T1AF0 000:157.037   CPU_ReadMem(16 bytes @ 0xE0041FF0)
T1AF0 000:157.556   Data:  00 00 00 00 00 00 00 00 00 00 00 00 00 00 00 00
T1AF0 000:157.566 - 0.566ms returns 16 (0x10)
T1AF0 000:157.574 JLINK_GetDebugInfo(0x102 = JLINKARM_DEBUG_INFO_MTB_ADDR_INDEX)
T1AF0 000:157.580   Value=0x00000000
T1AF0 000:157.590 - 0.020ms returns 0
T1AF0 000:157.600 JLINK_GetDebugInfo(0x103 = JLINKARM_DEBUG_INFO_TPIU_ADDR_INDEX)
T1AF0 000:157.606   Value=0xE0040000
T1AF0 000:157.615 - 0.017ms returns 0
T1AF0 000:157.621 JLINK_GetDebugInfo(0x104 = JLINKARM_DEBUG_INFO_ITM_ADDR_INDEX)
T1AF0 000:157.627   Value=0xE0000000
T1AF0 000:157.635 - 0.016ms returns 0
T1AF0 000:157.642 JLINK_GetDebugInfo(0x105 = JLINKARM_DEBUG_INFO_DWT_ADDR_INDEX)
T1AF0 000:157.648   Value=0xE0001000
T1AF0 000:157.656 - 0.016ms returns 0
T1AF0 000:157.663 JLINK_GetDebugInfo(0x106 = JLINKARM_DEBUG_INFO_FPB_ADDR_INDEX)
T1AF0 000:157.669   Value=0xE0002000
T1AF0 000:157.677 - 0.016ms returns 0
T1AF0 000:157.684 JLINK_GetDebugInfo(0x107 = JLINKARM_DEBUG_INFO_NVIC_ADDR_INDEX)
T1AF0 000:157.689   Value=0xE000E000
T1AF0 000:157.698 - 0.016ms returns 0
T1AF0 000:157.704 JLINK_GetDebugInfo(0x10C = JLINKARM_DEBUG_INFO_DBG_ADDR_INDEX)
T1AF0 000:157.710   Value=0xE000EDF0
T1AF0 000:157.718 - 0.017ms returns 0
T1AF0 000:157.725 JLINK_GetDebugInfo(0x01 = Unknown)
T1AF0 000:157.731   Value=0x00000000
T1AF0 000:157.739 - 0.016ms returns 0
T1AF0 000:157.746 JLINK_ReadMemU32(0xE000ED00, 0x1 Items)
T1AF0 000:157.755   CPU_ReadMem(4 bytes @ 0xE000ED00)
T1AF0 000:158.136   Data:  31 C2 2F 41
T1AF0 000:158.148   Debug reg: CPUID
T1AF0 000:158.157 - 0.413ms returns 1 (0x1)
T1AF0 000:158.165 JLINK_GetDebugInfo(0x10F = JLINKARM_DEBUG_INFO_HAS_CORTEX_M_SECURITY_EXT_INDEX)
T1AF0 000:158.171   Value=0x00000000
T1AF0 000:158.179 - 0.017ms returns 0
T1AF0 000:158.186 JLINK_HasError()
T1AF0 000:158.194 JLINK_SetResetType(JLINKARM_CM3_RESET_TYPE_NORMAL)
T1AF0 000:158.200 - 0.009ms returns JLINKARM_CM3_RESET_TYPE_NORMAL
T1AF0 000:158.207 JLINK_Reset()
T1AF0 000:158.226   CPU is running
T1AF0 000:158.236   CPU_WriteMem(4 bytes @ 0xE000EDF0)
T1AF0 000:158.637   CPU is running
T1AF0 000:158.648   CPU_WriteMem(4 bytes @ 0xE000EDFC)
T1AF0 000:159.051   Reset: Halt core after reset via DEMCR.VC_CORERESET.
T1AF0 000:159.419   Reset: Reset device via AIRCR.SYSRESETREQ.
T1AF0 000:159.429   CPU is running
T1AF0 000:159.439   CPU_WriteMem(4 bytes @ 0xE000ED0C)
T1AF0 000:211.992   CPU_ReadMem(4 bytes @ 0xE000EDF0)
T1AF0 000:212.402   CPU_ReadMem(4 bytes @ 0xE000EDF0)
T1AF0 000:212.807   CPU is running
T1AF0 000:212.822   CPU_WriteMem(4 bytes @ 0xE000EDF0)
T1AF0 000:213.228   CPU is running
T1AF0 000:213.240   CPU_WriteMem(4 bytes @ 0xE000EDFC)
T1AF0 000:219.571   CPU_ReadMem(4 bytes @ 0xE000EDF0)
T1AF0 000:224.226   CPU_WriteMem(4 bytes @ 0xE0002000)
T1AF0 000:224.635   CPU_ReadMem(4 bytes @ 0xE000EDFC)
T1AF0 000:225.061   CPU_ReadMem(4 bytes @ 0xE0001000)
T1AF0 000:225.465 - 67.264ms
T1AF0 000:225.519 JLINK_HasError()
T1AF0 000:225.531 JLINK_ReadReg(R15 (PC))
T1AF0 000:225.549 - 0.022ms returns 0x00000260
T1AF0 000:225.560 JLINK_ReadReg(XPSR)
T1AF0 000:225.571 - 0.028ms returns 0x01000000
T1AF0 000:225.595 JLINK_Halt()
T1AF0 000:225.603 - 0.012ms returns 0x00
T1AF0 000:225.618 JLINK_ReadMemU32(0xE000EDF0, 0x1 Items)
T1AF0 000:225.632   CPU_ReadMem(4 bytes @ 0xE000EDF0)
T1AF0 000:226.051   Data:  03 00 03 00
T1AF0 000:226.065   Debug reg: DHCSR
T1AF0 000:226.077 - 0.463ms returns 1 (0x1)
T1AF0 000:226.095 JLINK_WriteU32_64(0xE000EDF0, 0xA05F0003)
T1AF0 000:226.107   Debug reg: DHCSR
T1AF0 000:226.305   CPU_WriteMem(4 bytes @ 0xE000EDF0)
T1AF0 000:226.711 - 0.620ms returns 0 (0x00000000)
T1AF0 000:226.721 JLINK_WriteU32_64(0xE000EDFC, 0x01000000)
T1AF0 000:226.727   Debug reg: DEMCR
T1AF0 000:226.739   CPU_WriteMem(4 bytes @ 0xE000EDFC)
T1AF0 000:227.136 - 0.419ms returns 0 (0x00000000)
T1AF0 000:227.170 JLINK_GetHWStatus(...)
T1AF0 000:227.298 - 0.132ms returns 0
T1AF0 000:227.318 JLINK_GetNumBPUnits(Type = 0xFFFFFF00)
T1AF0 000:227.325 - 0.009ms returns 0x06
T1AF0 000:227.332 JLINK_GetNumBPUnits(Type = 0xF0)
T1AF0 000:227.338 - 0.008ms returns 0x2000
T1AF0 000:227.345 JLINK_GetNumWPUnits()
T1AF0 000:227.350 - 0.008ms returns 4
T1AF0 000:227.364 JLINK_GetSpeed()
T1AF0 000:227.370 - 0.008ms returns 2000
T1AF0 000:227.381 JLINK_ReadMemU32(0xE000E004, 0x1 Items)
T1AF0 000:227.390   CPU_ReadMem(4 bytes @ 0xE000E004)
T1AF0 000:227.775   Data:  01 00 00 00
T1AF0 000:227.784 - 0.406ms returns 1 (0x1)
T1AF0 000:227.792 JLINK_ReadMemU32(0xE000E004, 0x1 Items)
T1AF0 000:227.800   CPU_ReadMem(4 bytes @ 0xE000E004)
T1AF0 000:228.177   Data:  01 00 00 00
T1AF0 000:228.187 - 0.397ms returns 1 (0x1)
T1AF0 000:228.194 JLINK_WriteMemEx(0xE0001000, 0x0000001C Bytes, Flags = 0x02000004)
T1AF0 000:228.201   Data:  01 00 00 00 00 00 00 00 00 00 00 00 00 00 00 00 ...
T1AF0 000:228.213   CPU_WriteMem(28 bytes @ 0xE0001000)
T1AF0 000:228.846 - 0.656ms returns 0x1C
T1AF0 000:228.862 JLINK_HasError()
T1AF0 000:228.869 JLINK_ReadReg(R15 (PC))
T1AF0 000:228.876 - 0.010ms returns 0x00000260
T1AF0 000:228.883 JLINK_ReadReg(XPSR)
T1AF0 000:228.890 - 0.009ms returns 0x01000000
T1AF0 000:234.040 JLINK_ReadMemEx(0xE0001004, 0x4 Bytes, Flags = 0x02000000)
T1AF0 000:234.056   Data:  00 00 00 00
T1AF0 000:234.065   Debug reg: DWT_CYCCNT
T1AF0 000:234.074 - 0.037ms returns 4 (0x4)
T1AF0 000:297.297 JLINK_HasError()
T1AF0 000:297.320 JLINK_SetResetType(JLINKARM_CM3_RESET_TYPE_NORMAL)
T1AF0 000:297.327 - 0.010ms returns JLINKARM_CM3_RESET_TYPE_NORMAL
T1AF0 000:297.335 JLINK_Reset()
T1AF0 000:297.351   CPU_WriteMem(4 bytes @ 0xE000EDF0)
T1AF0 000:297.792   CPU_WriteMem(4 bytes @ 0xE000EDFC)
T1AF0 000:298.216   Reset: Halt core after reset via DEMCR.VC_CORERESET.
T1AF0 000:298.617   Reset: Reset device via AIRCR.SYSRESETREQ.
T1AF0 000:298.629   CPU_WriteMem(4 bytes @ 0xE000ED0C)
T1AF0 000:352.049   CPU_ReadMem(4 bytes @ 0xE000EDF0)
T1AF0 000:352.483   CPU_ReadMem(4 bytes @ 0xE000EDF0)
T1AF0 000:352.881   CPU_WriteMem(4 bytes @ 0xE000EDF0)
T1AF0 000:353.327   CPU_WriteMem(4 bytes @ 0xE000EDFC)
T1AF0 000:359.603   CPU_ReadMem(4 bytes @ 0xE000EDF0)
T1AF0 000:364.224   CPU_WriteMem(4 bytes @ 0xE0002000)
T1AF0 000:364.633   CPU_ReadMem(4 bytes @ 0xE000EDFC)
T1AF0 000:365.029   CPU_ReadMem(4 bytes @ 0xE0001000)
T1AF0 000:365.430 - 68.100ms
T1AF0 000:365.489 JLINK_HasError()
T1AF0 000:365.503 JLINK_ReadReg(R15 (PC))
T1AF0 000:365.515 - 0.016ms returns 0x00000260
T1AF0 000:365.526 JLINK_ReadReg(XPSR)
T1AF0 000:365.535 - 0.013ms returns 0x01000000
T1AF0 000:365.615 JLINK_ReadMemEx(0x00000260, 0x3C Bytes, Flags = 0x02000000)
T1AF0 000:365.631   CPU_ReadMem(60 bytes @ 0x00000260)
T1AF0 000:366.583   Data:  0E 48 01 68 11 F0 01 0F 01 D1 0D 48 00 47 4F F0 ...
T1AF0 000:366.593 - 0.981ms returns 60 (0x3C)
T1AF0 000:366.602 JLINK_ReadMemEx(0x00000260, 0x2 Bytes, Flags = 0x02000000)
T1AF0 000:366.610   CPU_ReadMem(2 bytes @ 0x00000260)
T1AF0 000:366.998   Data:  0E 48
T1AF0 000:367.007 - 0.408ms returns 2 (0x2)
T1AF0 000:367.016 JLINK_ReadMemEx(0x00000262, 0x2 Bytes, Flags = 0x02000000)
T1AF0 000:367.024   CPU_ReadMem(2 bytes @ 0x00000262)
T1AF0 000:367.416   Data:  01 68
T1AF0 000:367.430 - 0.418ms returns 2 (0x2)
T1AF0 000:367.453 JLINK_ReadMemEx(0x00000262, 0x2 Bytes, Flags = 0x02000000)
T1AF0 000:367.465   CPU_ReadMem(2 bytes @ 0x00000262)
T1AF0 000:367.864   Data:  01 68
T1AF0 000:367.877 - 0.428ms returns 2 (0x2)
T1AF0 000:367.889 JLINK_ReadMemEx(0x00000264, 0x3C Bytes, Flags = 0x02000000)
T1AF0 000:367.900   CPU_ReadMem(60 bytes @ 0x00000264)
T1AF0 000:368.983   Data:  11 F0 01 0F 01 D1 0D 48 00 47 4F F0 00 70 01 68 ...
T1AF0 000:368.993 - 1.107ms returns 60 (0x3C)
T1AF0 000:369.001 JLINK_ReadMemEx(0x00000264, 0x2 Bytes, Flags = 0x02000000)
T1AF0 000:369.010   CPU_ReadMem(2 bytes @ 0x00000264)
T1AF0 000:369.403   Data:  11 F0
T1AF0 000:369.417 - 0.419ms returns 2 (0x2)
T1AF0 000:369.437 JLINK_ReadMemEx(0x00000264, 0x3C Bytes, Flags = 0x02000000)
T1AF0 000:369.448   CPU_ReadMem(60 bytes @ 0x00000264)
T1AF0 000:370.384   Data:  11 F0 01 0F 01 D1 0D 48 00 47 4F F0 00 70 01 68 ...
T1AF0 000:370.398 - 0.965ms returns 60 (0x3C)
T1AF0 000:370.409 JLINK_ReadMemEx(0x00000264, 0x2 Bytes, Flags = 0x02000000)
T1AF0 000:370.420   CPU_ReadMem(2 bytes @ 0x00000264)
T1AF0 000:370.835   Data:  11 F0
T1AF0 000:370.851 - 0.446ms returns 2 (0x2)
T1AF0 000:370.875 JLINK_ReadMemEx(0x00000266, 0x2 Bytes, Flags = 0x02000000)
T1AF0 000:370.889   CPU_ReadMem(2 bytes @ 0x00000266)
T1AF0 000:371.311   Data:  01 0F
T1AF0 000:371.325 - 0.454ms returns 2 (0x2)
T1AF0 000:371.350 JLINK_ReadMemEx(0x00000268, 0x3C Bytes, Flags = 0x02000000)
T1AF0 000:371.363   CPU_ReadMem(60 bytes @ 0x00000268)
T1AF0 000:372.295   Data:  01 D1 0D 48 00 47 4F F0 00 70 01 68 11 F0 01 0F ...
T1AF0 000:372.305 - 0.957ms returns 60 (0x3C)
T1AF0 000:372.313 JLINK_ReadMemEx(0x00000268, 0x2 Bytes, Flags = 0x02000000)
T1AF0 000:372.321   CPU_ReadMem(2 bytes @ 0x00000268)
T1AF0 000:372.711   Data:  01 D1
T1AF0 000:372.727 - 0.417ms returns 2 (0x2)
T1AF0 000:372.736 JLINK_ReadMemEx(0x0000026A, 0x2 Bytes, Flags = 0x02000000)
T1AF0 000:372.747   CPU_ReadMem(2 bytes @ 0x0000026A)
T1AF0 000:373.155   Data:  0D 48
T1AF0 000:373.165 - 0.431ms returns 2 (0x2)
T1AF0 000:373.181 JLINK_ReadMemEx(0x0000026A, 0x2 Bytes, Flags = 0x02000000)
T1AF0 000:373.190   CPU_ReadMem(2 bytes @ 0x0000026A)
T1AF0 000:373.597   Data:  0D 48
T1AF0 000:373.611 - 0.433ms returns 2 (0x2)
T1AF0 000:373.621 JLINK_ReadMemEx(0x0000026C, 0x3C Bytes, Flags = 0x02000000)
T1AF0 000:373.631   CPU_ReadMem(60 bytes @ 0x0000026C)
T1AF0 000:374.569   Data:  00 47 4F F0 00 70 01 68 11 F0 01 0F 03 D1 0A 48 ...
T1AF0 000:374.579 - 0.961ms returns 60 (0x3C)
T1AF0 000:374.587 JLINK_ReadMemEx(0x0000026C, 0x2 Bytes, Flags = 0x02000000)
T1AF0 000:374.595   CPU_ReadMem(2 bytes @ 0x0000026C)
T1AF0 000:374.995   Data:  00 47
T1AF0 000:375.005 - 0.420ms returns 2 (0x2)
T1AF0 000:375.019 JLINK_ReadMemEx(0x0000026C, 0x3C Bytes, Flags = 0x02000000)
T1AF0 000:375.027   CPU_ReadMem(60 bytes @ 0x0000026C)
T1AF0 000:375.989   Data:  00 47 4F F0 00 70 01 68 11 F0 01 0F 03 D1 0A 48 ...
T1AF0 000:376.001 - 0.985ms returns 60 (0x3C)
T1AF0 000:376.010 JLINK_ReadMemEx(0x0000026C, 0x2 Bytes, Flags = 0x02000000)
T1AF0 000:376.020   CPU_ReadMem(2 bytes @ 0x0000026C)
T1AF0 000:376.402   Data:  00 47
T1AF0 000:376.414 - 0.407ms returns 2 (0x2)
T1AF0 000:376.424 JLINK_ReadMemEx(0x0000026E, 0x2 Bytes, Flags = 0x02000000)
T1AF0 000:376.434   CPU_ReadMem(2 bytes @ 0x0000026E)
T1AF0 000:376.823   Data:  4F F0
T1AF0 000:376.834 - 0.414ms returns 2 (0x2)
T1AF0 000:376.850 JLINK_ReadMemEx(0x0000026E, 0x2 Bytes, Flags = 0x02000000)
T1AF0 000:376.860   CPU_ReadMem(2 bytes @ 0x0000026E)
T1AF0 000:377.242   Data:  4F F0
T1AF0 000:377.254 - 0.407ms returns 2 (0x2)
T1AF0 000:377.264 JLINK_ReadMemEx(0x00000270, 0x3C Bytes, Flags = 0x02000000)
T1AF0 000:377.273   CPU_ReadMem(60 bytes @ 0x00000270)
T1AF0 000:378.207   Data:  00 70 01 68 11 F0 01 0F 03 D1 0A 48 4F F0 01 01 ...
T1AF0 000:378.217 - 0.956ms returns 60 (0x3C)
T1AF0 000:378.225 JLINK_ReadMemEx(0x00000270, 0x2 Bytes, Flags = 0x02000000)
T1AF0 000:378.233   CPU_ReadMem(2 bytes @ 0x00000270)
T1AF0 000:378.612   Data:  00 70
T1AF0 000:378.623 - 0.401ms returns 2 (0x2)
T1AF0 000:434.750 JLINK_ReadMemEx(0x4000C000, 0x4 Bytes, Flags = 0x02000004)
T1AF0 000:434.784   CPU_ReadMem(4 bytes @ 0x4000C000)
T1AF0 000:435.197   Data:  02 30 02 01
T1AF0 000:435.206 - 0.459ms returns 4 (0x4)
T1AF0 000:435.220 JLINK_ReadMemEx(0x4000C004, 0x4 Bytes, Flags = 0x02000004)
T1AF0 000:435.228   CPU_ReadMem(4 bytes @ 0x4000C004)
T1AF0 000:435.624   Data:  00 00 00 80
T1AF0 000:435.633 - 0.415ms returns 4 (0x4)
T1AF0 000:435.641 JLINK_ReadMemEx(0x4000C010, 0x4 Bytes, Flags = 0x02000004)
T1AF0 000:435.649   CPU_ReadMem(4 bytes @ 0x4000C010)
T1AF0 000:436.030   Data:  88 40 40 80
T1AF0 000:436.039 - 0.400ms returns 4 (0x4)
T1AF0 000:436.046 JLINK_ReadMemEx(0x4000C020, 0x4 Bytes, Flags = 0x02000004)
T1AF0 000:436.053   CPU_ReadMem(4 bytes @ 0x4000C020)
T1AF0 000:436.442   Data:  00 00 00 00
T1AF0 000:436.452 - 0.407ms returns 4 (0x4)
T1AF0 000:436.459 JLINK_ReadMemEx(0x4000C024, 0x4 Bytes, Flags = 0x02000004)
T1AF0 000:436.467   CPU_ReadMem(4 bytes @ 0x4000C024)
T1AF0 000:436.845   Data:  00 00 00 00
T1AF0 000:436.853 - 0.396ms returns 4 (0x4)
T1AF0 000:436.861 JLINK_ReadMemEx(0x4000C030, 0x4 Bytes, Flags = 0x02000004)
T1AF0 000:436.868   CPU_ReadMem(4 bytes @ 0x4000C030)
T1AF0 000:437.240   Data:  00 00 00 00
T1AF0 000:437.248 - 0.389ms returns 4 (0x4)
T1AF0 000:437.255 JLINK_ReadMemEx(0x4000C034, 0x4 Bytes, Flags = 0x02000004)
T1AF0 000:437.262   CPU_ReadMem(4 bytes @ 0x4000C034)
T1AF0 000:437.643   Data:  00 00 00 00
T1AF0 000:437.651 - 0.398ms returns 4 (0x4)
T1AF0 000:437.658 JLINK_ReadMemEx(0x4000C040, 0x8 Bytes, Flags = 0x02000004)
T1AF0 000:437.665   CPU_ReadMem(8 bytes @ 0x4000C040)
T1AF0 000:438.086   Data:  00 00 00 00 00 00 00 00
T1AF0 000:438.094 - 0.438ms returns 8 (0x8)
T1AF0 000:438.101 JLINK_ReadMemEx(0x4000C048, 0x4 Bytes, Flags = 0x02000004)
T1AF0 000:438.108   CPU_ReadMem(4 bytes @ 0x4000C048)
T1AF0 000:438.517   Data:  00 00 00 00
T1AF0 000:438.530 - 0.432ms returns 4 (0x4)
T1AF0 000:438.542 JLINK_ReadMemEx(0x4000C050, 0x4 Bytes, Flags = 0x02000004)
T1AF0 000:438.553   CPU_ReadMem(4 bytes @ 0x4000C050)
T1AF0 000:438.996   Data:  00 00 00 00
T1AF0 000:439.009 - 0.471ms returns 4 (0x4)
T1AF0 000:439.021 JLINK_ReadMemEx(0x4000C058, 0x4 Bytes, Flags = 0x02000004)
T1AF0 000:439.032   CPU_ReadMem(4 bytes @ 0x4000C058)
T1AF0 000:439.432   Data:  00 00 00 00
T1AF0 000:439.445 - 0.427ms returns 4 (0x4)
T1AF0 000:439.457 JLINK_ReadMemEx(0x4000C060, 0x8 Bytes, Flags = 0x02000004)
T1AF0 000:439.468   CPU_ReadMem(8 bytes @ 0x4000C060)
T1AF0 000:439.897   Data:  00 00 00 00 00 00 00 00
T1AF0 000:439.905 - 0.450ms returns 8 (0x8)
T1AF0 000:439.914 JLINK_ReadMemEx(0x4000C068, 0x4 Bytes, Flags = 0x02000004)
T1AF0 000:439.921   CPU_ReadMem(4 bytes @ 0x4000C068)
T1AF0 000:440.301   Data:  00 00 00 00
T1AF0 000:440.309 - 0.397ms returns 4 (0x4)
T1AF0 000:440.317 JLINK_ReadMemEx(0x4000C070, 0x4 Bytes, Flags = 0x02000004)
T1AF0 000:440.324   CPU_ReadMem(4 bytes @ 0x4000C070)
T1AF0 000:440.714   Data:  00 00 00 00
T1AF0 000:440.728 - 0.414ms returns 4 (0x4)
T1AF0 000:440.741 JLINK_ReadMemEx(0x4000C078, 0x4 Bytes, Flags = 0x02000004)
T1AF0 000:440.752   CPU_ReadMem(4 bytes @ 0x4000C078)
T1AF0 000:441.143   Data:  00 00 00 00
T1AF0 000:441.156 - 0.418ms returns 4 (0x4)
T1AF0 000:441.169 JLINK_ReadMemEx(0x4000C080, 0x8 Bytes, Flags = 0x02000004)
T1AF0 000:441.181   CPU_ReadMem(8 bytes @ 0x4000C080)
T1AF0 000:441.611   Data:  00 00 00 00 00 00 00 00
T1AF0 000:441.625 - 0.460ms returns 8 (0x8)
T1AF0 000:441.639 JLINK_ReadMemEx(0x4000C088, 0x4 Bytes, Flags = 0x02000004)
T1AF0 000:441.650   CPU_ReadMem(4 bytes @ 0x4000C088)
T1AF0 000:442.068   Data:  00 00 00 00
T1AF0 000:442.082 - 0.446ms returns 4 (0x4)
T1AF0 000:442.096 JLINK_ReadMemEx(0x4000C090, 0x4 Bytes, Flags = 0x02000004)
T1AF0 000:442.107   CPU_ReadMem(4 bytes @ 0x4000C090)
T1AF0 000:442.506   Data:  00 00 00 00
T1AF0 000:442.520 - 0.428ms returns 4 (0x4)
T1AF0 000:442.533 JLINK_ReadMemEx(0x4000C098, 0x4 Bytes, Flags = 0x02000004)
T1AF0 000:442.544   CPU_ReadMem(4 bytes @ 0x4000C098)
T1AF0 000:442.991   Data:  00 00 00 00
T1AF0 000:442.999 - 0.468ms returns 4 (0x4)
T1AF0 000:443.007 JLINK_ReadMemEx(0x4000C0A0, 0x8 Bytes, Flags = 0x02000004)
T1AF0 000:443.013   CPU_ReadMem(8 bytes @ 0x4000C0A0)
T1AF0 000:443.435   Data:  00 00 00 00 00 00 00 00
T1AF0 000:443.444 - 0.439ms returns 8 (0x8)
T1AF0 000:443.454 JLINK_ReadMemEx(0x4000C0A8, 0x4 Bytes, Flags = 0x02000004)
T1AF0 000:443.463   CPU_ReadMem(4 bytes @ 0x4000C0A8)
T1AF0 000:443.850   Data:  00 00 00 00
T1AF0 000:443.864 - 0.413ms returns 4 (0x4)
T1AF0 000:443.877 JLINK_ReadMemEx(0x4000C0B0, 0x4 Bytes, Flags = 0x02000004)
T1AF0 000:443.889   CPU_ReadMem(4 bytes @ 0x4000C0B0)
T1AF0 000:444.305   Data:  00 00 00 00
T1AF0 000:444.318 - 0.445ms returns 4 (0x4)
T1AF0 000:444.332 JLINK_ReadMemEx(0x4000C0B8, 0x4 Bytes, Flags = 0x02000004)
T1AF0 000:444.343   CPU_ReadMem(4 bytes @ 0x4000C0B8)
T1AF0 000:444.734   Data:  00 00 00 00
T1AF0 000:444.742 - 0.412ms returns 4 (0x4)
T1AF0 000:444.750 JLINK_ReadMemEx(0x4000C0C0, 0x8 Bytes, Flags = 0x02000004)
T1AF0 000:444.757   CPU_ReadMem(8 bytes @ 0x4000C0C0)
T1AF0 000:445.183   Data:  00 00 00 00 00 00 00 00
T1AF0 000:445.191 - 0.444ms returns 8 (0x8)
T1AF0 000:445.200 JLINK_ReadMemEx(0x4000C0C8, 0x4 Bytes, Flags = 0x02000004)
T1AF0 000:445.206   CPU_ReadMem(4 bytes @ 0x4000C0C8)
T1AF0 000:445.599   Data:  00 00 00 00
T1AF0 000:445.612 - 0.418ms returns 4 (0x4)
T1AF0 000:445.627 JLINK_ReadMemEx(0x4000C0D0, 0x4 Bytes, Flags = 0x02000004)
T1AF0 000:445.638   CPU_ReadMem(4 bytes @ 0x4000C0D0)
T1AF0 000:446.033   Data:  00 00 00 00
T1AF0 000:446.046 - 0.423ms returns 4 (0x4)
T1AF0 000:446.060 JLINK_ReadMemEx(0x4000C0D8, 0x4 Bytes, Flags = 0x02000004)
T1AF0 000:446.071   CPU_ReadMem(4 bytes @ 0x4000C0D8)
T1AF0 000:446.472   Data:  00 00 00 00
T1AF0 000:446.485 - 0.429ms returns 4 (0x4)
T1AF0 000:446.499 JLINK_ReadMemEx(0x4000C0E0, 0x8 Bytes, Flags = 0x02000004)
T1AF0 000:446.510   CPU_ReadMem(8 bytes @ 0x4000C0E0)
T1AF0 000:446.989   Data:  00 00 00 00 00 00 00 00
T1AF0 000:446.998 - 0.501ms returns 8 (0x8)
T1AF0 000:447.006 JLINK_ReadMemEx(0x4000C0E8, 0x4 Bytes, Flags = 0x02000004)
T1AF0 000:447.013   CPU_ReadMem(4 bytes @ 0x4000C0E8)
T1AF0 000:447.402   Data:  00 00 00 00
T1AF0 000:447.410 - 0.406ms returns 4 (0x4)
T1AF0 000:447.419 JLINK_ReadMemEx(0x4000C0F0, 0x4 Bytes, Flags = 0x02000004)
T1AF0 000:447.426   CPU_ReadMem(4 bytes @ 0x4000C0F0)
T1AF0 000:447.802   Data:  00 00 00 00
T1AF0 000:447.811 - 0.395ms returns 4 (0x4)
T1AF0 000:447.820 JLINK_ReadMemEx(0x4000C0F8, 0x4 Bytes, Flags = 0x02000004)
T1AF0 000:447.828   CPU_ReadMem(4 bytes @ 0x4000C0F8)
T1AF0 000:448.225   Data:  00 00 00 00
T1AF0 000:448.234 - 0.417ms returns 4 (0x4)
T1AF0 000:448.243 JLINK_ReadMemEx(0x4000C100, 0x8 Bytes, Flags = 0x02000004)
T1AF0 000:448.251   CPU_ReadMem(8 bytes @ 0x4000C100)
T1AF0 000:448.701   Data:  00 00 00 00 00 00 00 00
T1AF0 000:448.721 - 0.485ms returns 8 (0x8)
T1AF0 000:448.738 JLINK_ReadMemEx(0x4000C108, 0x4 Bytes, Flags = 0x02000004)
T1AF0 000:448.750   CPU_ReadMem(4 bytes @ 0x4000C108)
T1AF0 000:449.173   Data:  00 00 00 00
T1AF0 000:449.187 - 0.453ms returns 4 (0x4)
T1AF0 000:449.202 JLINK_ReadMemEx(0x4000C110, 0x4 Bytes, Flags = 0x02000004)
T1AF0 000:449.214   CPU_ReadMem(4 bytes @ 0x4000C110)
T1AF0 000:449.615   Data:  00 00 00 00
T1AF0 000:449.630 - 0.432ms returns 4 (0x4)
T1AF0 000:449.643 JLINK_ReadMemEx(0x4000C118, 0x4 Bytes, Flags = 0x02000004)
T1AF0 000:449.653   CPU_ReadMem(4 bytes @ 0x4000C118)
T1AF0 000:450.040   Data:  00 00 00 00
T1AF0 000:450.050 - 0.409ms returns 4 (0x4)
T1AF0 000:450.059 JLINK_ReadMemEx(0x4000C120, 0x8 Bytes, Flags = 0x02000004)
T1AF0 000:450.067   CPU_ReadMem(8 bytes @ 0x4000C120)
T1AF0 000:450.492   Data:  00 00 00 00 00 00 00 00
T1AF0 000:450.502 - 0.445ms returns 8 (0x8)
T1AF0 000:450.511 JLINK_ReadMemEx(0x4000C128, 0x4 Bytes, Flags = 0x02000004)
T1AF0 000:450.519   CPU_ReadMem(4 bytes @ 0x4000C128)
T1AF0 000:450.903   Data:  00 00 00 00
T1AF0 000:450.912 - 0.404ms returns 4 (0x4)
T1AF0 000:450.922 JLINK_ReadMemEx(0x4000C130, 0x4 Bytes, Flags = 0x02000004)
T1AF0 000:450.930   CPU_ReadMem(4 bytes @ 0x4000C130)
T1AF0 000:451.308   Data:  00 00 00 00
T1AF0 000:451.318 - 0.399ms returns 4 (0x4)
T1AF0 000:451.327 JLINK_ReadMemEx(0x4000C138, 0x4 Bytes, Flags = 0x02000004)
T1AF0 000:451.335   CPU_ReadMem(4 bytes @ 0x4000C138)
T1AF0 000:451.732   Data:  00 00 00 00
T1AF0 000:451.745 - 0.422ms returns 4 (0x4)
T1AF0 000:488.754 JLINK_ReadMemEx(0x40011000, 0x4 Bytes, Flags = 0x02000004)
T1AF0 000:488.784   CPU_ReadMem(4 bytes @ 0x40011000)
T1AF0 000:489.198   Data:  00 00 00 00
T1AF0 000:489.211 - 0.460ms returns 4 (0x4)
T1AF0 000:489.220 JLINK_ReadMemEx(0x40011004, 0x4 Bytes, Flags = 0x02000004)
T1AF0 000:489.229   CPU_ReadMem(4 bytes @ 0x40011004)
T1AF0 000:489.626   Data:  00 00 00 00
T1AF0 000:489.634 - 0.416ms returns 4 (0x4)
T1AF0 000:489.642 JLINK_ReadMemEx(0x40011018, 0x4 Bytes, Flags = 0x02000004)
T1AF0 000:489.649   CPU_ReadMem(4 bytes @ 0x40011018)
T1AF0 000:490.035   Data:  97 01 00 00
T1AF0 000:490.043 - 0.403ms returns 4 (0x4)
T1AF0 000:490.051 JLINK_ReadMemEx(0x40011020, 0x28 Bytes, Flags = 0x02000004)
T1AF0 000:490.057   CPU_ReadMem(40 bytes @ 0x40011020)
T1AF0 000:490.783   Data:  00 00 00 00 00 00 00 00 00 00 00 00 00 00 00 00 ...
T1AF0 000:490.796 - 0.750ms returns 40 (0x28)
T1AF0 000:490.809 JLINK_ReadMemEx(0x40011048, 0x4 Bytes, Flags = 0x02000004)
T1AF0 000:490.820   CPU_ReadMem(4 bytes @ 0x40011048)
T1AF0 000:491.224   Data:  00 00 00 00
T1AF0 000:491.237 - 0.432ms returns 4 (0x4)
T1AF0 000:491.250 JLINK_ReadMemEx(0x40011FE0, 0x1C Bytes, Flags = 0x02000004)
T1AF0 000:491.261   CPU_ReadMem(28 bytes @ 0x40011FE0)
T1AF0 000:491.905   Data:  11 00 00 00 10 00 00 00 34 00 00 00 00 00 00 00 ...
T1AF0 000:491.926 - 0.681ms returns 28 (0x1C)
T1AF0 000:491.941 JLINK_ReadMemEx(0x40011FFC, 0x4 Bytes, Flags = 0x02000004)
T1AF0 000:491.957   CPU_ReadMem(4 bytes @ 0x40011FFC)
T1AF0 000:492.366   Data:  B1 00 00 00
T1AF0 000:492.383 - 0.446ms returns 4 (0x4)
T1AF0 000:525.112 JLINK_ReadMemEx(0x40102000, 0x4 Bytes, Flags = 0x02000004)
T1AF0 000:525.141   CPU_ReadMem(4 bytes @ 0x40102000)
T1AF0 000:525.568   Data:  45 C8 00 68
T1AF0 000:525.581 - 0.472ms returns 4 (0x4)
T1AF0 000:525.591 JLINK_ReadMemEx(0x40102004, 0x4 Bytes, Flags = 0x02000004)
T1AF0 000:525.600   CPU_ReadMem(4 bytes @ 0x40102004)
T1AF0 000:525.994   Data:  FF FF FF FF
T1AF0 000:526.004 - 0.416ms returns 4 (0x4)
T1AF0 000:526.014 JLINK_ReadMemEx(0x40102010, 0x2C Bytes, Flags = 0x02000004)
T1AF0 000:526.022   CPU_ReadMem(44 bytes @ 0x40102010)
T1AF0 000:526.792   Data:  A5 8D E3 10 00 10 00 01 DC F7 13 01 30 00 2D 00 ...
T1AF0 000:526.807 - 0.796ms returns 44 (0x2C)
T1AF0 000:526.824 JLINK_ReadMemEx(0x4010203C, 0x4 Bytes, Flags = 0x02000004)
T1AF0 000:526.839   CPU_ReadMem(4 bytes @ 0x4010203C)
T1AF0 000:527.238   Data:  06 82 00 80
T1AF0 000:527.248 - 0.426ms returns 4 (0x4)
T1AF0 000:560.988 JLINK_ReadMemEx(0x40100000, 0x7C Bytes, Flags = 0x02000004)
T1AF0 000:561.015   CPU_ReadMem(124 bytes @ 0x40100000)
T1AF0 000:562.584   Data:  FF 00 FE 07 00 F0 07 00 55 65 8E 02 91 22 21 08 ...
T1AF0 000:562.599 - 1.614ms returns 124 (0x7C)
T1AF0 000:562.610 JLINK_ReadMemEx(0x4010007C, 0x4 Bytes, Flags = 0x02000004)
T1AF0 000:562.621   CPU_ReadMem(4 bytes @ 0x4010007C)
T1AF0 000:563.019   Data:  0F 00 00 00
T1AF0 000:563.034 - 0.427ms returns 4 (0x4)
T1AF0 000:563.047 JLINK_ReadMemEx(0x40100084, 0x4 Bytes, Flags = 0x02000004)
T1AF0 000:563.059   CPU_ReadMem(4 bytes @ 0x40100084)
T1AF0 000:563.466   Data:  00 00 08 00
T1AF0 000:563.479 - 0.436ms returns 4 (0x4)
T1AF0 000:563.492 JLINK_ReadMemEx(0x40100088, 0x4 Bytes, Flags = 0x02000004)
T1AF0 000:563.503   CPU_ReadMem(4 bytes @ 0x40100088)
T1AF0 000:563.910   Data:  00 00 00 00
T1AF0 000:563.924 - 0.436ms returns 4 (0x4)
T1AF0 000:596.642 JLINK_ReadMemEx(0x4001A000, 0x34 Bytes, Flags = 0x02000004)
T1AF0 000:596.671   CPU_ReadMem(52 bytes @ 0x4001A000)
T1AF0 000:597.525   Data:  00 00 00 00 20 00 00 00 00 00 00 00 24 04 00 00 ...
T1AF0 000:597.538 - 0.899ms returns 52 (0x34)
T1AF0 000:597.548 JLINK_ReadMemEx(0x4001A034, 0x4 Bytes, Flags = 0x02000004)
T1AF0 000:597.557   CPU_ReadMem(4 bytes @ 0x4001A034)
T1AF0 000:597.992   Data:  00 00 00 00
T1AF0 000:598.002 - 0.458ms returns 4 (0x4)
T1AF0 000:598.012 JLINK_ReadMemEx(0x4001A03C, 0x10 Bytes, Flags = 0x02000004)
T1AF0 000:598.073   CPU_ReadMem(16 bytes @ 0x4001A03C)
T1AF0 000:598.585   Data:  D0 00 00 00 0C 00 00 00 02 00 00 00 00 00 FF 0F
T1AF0 000:598.595 - 0.586ms returns 16 (0x10)
T1AF0 000:598.604 JLINK_ReadMemEx(0x4001A04C, 0x4 Bytes, Flags = 0x02000004)
T1AF0 000:598.613   CPU_ReadMem(4 bytes @ 0x4001A04C)
T1AF0 000:599.008   Data:  02 00 00 00
T1AF0 000:599.016 - 0.414ms returns 4 (0x4)
T1AF0 000:631.573 JLINK_ReadMemEx(0x40006000, 0x20 Bytes, Flags = 0x02000004)
T1AF0 000:631.603   CPU_ReadMem(32 bytes @ 0x40006000)
T1AF0 000:632.279   Data:  00 47 CC 04 02 00 00 00 00 00 00 00 00 00 00 00 ...
T1AF0 000:632.288 - 0.717ms returns 32 (0x20)
T1AF0 000:632.297 JLINK_ReadMemEx(0x40006020, 0x4 Bytes, Flags = 0x02000004)
T1AF0 000:632.304   CPU_ReadMem(4 bytes @ 0x40006020)
T1AF0 000:632.708   Data:  00 00 00 00
T1AF0 000:632.716 - 0.422ms returns 4 (0x4)
T1AF0 000:632.724 JLINK_ReadMemEx(0x40006040, 0x1C Bytes, Flags = 0x02000004)
T1AF0 000:632.731   CPU_ReadMem(28 bytes @ 0x40006040)
T1AF0 000:633.355   Data:  00 FC FF 01 FF FF FF 01 FF FF 0F 00 FF 7F F1 01 ...
T1AF0 000:633.363 - 0.642ms returns 28 (0x1C)
T1AF0 000:633.371 JLINK_ReadMemEx(0x4000605C, 0x4 Bytes, Flags = 0x02000004)
T1AF0 000:633.378   CPU_ReadMem(4 bytes @ 0x4000605C)
T1AF0 000:633.781   Data:  3F 00 00 00
T1AF0 000:633.797 - 0.429ms returns 4 (0x4)
T1AF0 000:633.808 JLINK_ReadMemEx(0x40006064, 0x8 Bytes, Flags = 0x02000004)
T1AF0 000:633.824   CPU_ReadMem(8 bytes @ 0x40006064)
T1AF0 000:634.265   Data:  E0 FF FF 7F FF FF FF 3F
T1AF0 000:634.277 - 0.472ms returns 8 (0x8)
T1AF0 000:634.286 JLINK_ReadMemEx(0x4000606C, 0x4 Bytes, Flags = 0x02000004)
T1AF0 000:634.296   CPU_ReadMem(4 bytes @ 0x4000606C)
T1AF0 000:634.685   Data:  1F 00 00 00
T1AF0 000:634.695 - 0.411ms returns 4 (0x4)
T1AF0 000:634.704 JLINK_ReadMemEx(0x40006080, 0x14 Bytes, Flags = 0x02000004)
T1AF0 000:634.712   CPU_ReadMem(20 bytes @ 0x40006080)
T1AF0 000:635.251   Data:  1E 00 00 00 00 00 00 00 1E 00 00 00 00 00 00 00 ...
T1AF0 000:635.259 - 0.558ms returns 20 (0x14)
T1AF0 000:635.266 JLINK_ReadMemEx(0x40006094, 0x4 Bytes, Flags = 0x02000004)
T1AF0 000:635.273   CPU_ReadMem(4 bytes @ 0x40006094)
T1AF0 000:635.665   Data:  00 00 00 00
T1AF0 000:635.673 - 0.409ms returns 4 (0x4)
T1AF0 000:635.681 JLINK_ReadMemEx(0x40006100, 0x18 Bytes, Flags = 0x02000004)
T1AF0 000:635.687   CPU_ReadMem(24 bytes @ 0x40006100)
T1AF0 000:636.271   Data:  00 00 00 00 00 00 00 00 AE AA AA AA AA AA AA AA ...
T1AF0 000:636.280 - 0.602ms returns 24 (0x18)
T1AF0 000:636.289 JLINK_ReadMemEx(0x40006118, 0x4 Bytes, Flags = 0x02000004)
T1AF0 000:636.298   CPU_ReadMem(4 bytes @ 0x40006118)
T1AF0 000:636.695   Data:  0B 0B 0B 0B
T1AF0 000:636.706 - 0.420ms returns 4 (0x4)
T1AF0 000:670.726 JLINK_ReadMemEx(0x4000A000, 0x2C Bytes, Flags = 0x02000004)
T1AF0 000:670.754   CPU_ReadMem(44 bytes @ 0x4000A000)
T1AF0 000:671.551   Data:  08 00 00 00 00 00 00 00 00 00 00 00 00 00 00 00 ...
T1AF0 000:671.562 - 0.838ms returns 44 (0x2C)
T1AF0 000:671.571 JLINK_ReadMemEx(0x4000A02C, 0x4 Bytes, Flags = 0x02000004)
T1AF0 000:671.580   CPU_ReadMem(4 bytes @ 0x4000A02C)
T1AF0 000:672.001   Data:  00 00 00 00
T1AF0 000:672.014 - 0.445ms returns 4 (0x4)
T1AF0 000:705.196 JLINK_ReadMemEx(0x40019000, 0x3C Bytes, Flags = 0x02000004)
T1AF0 000:705.224   CPU_ReadMem(60 bytes @ 0x40019000)
T1AF0 000:706.179   Data:  00 00 00 00 00 00 00 00 00 00 00 00 00 00 00 00 ...
T1AF0 000:706.188 - 0.994ms returns 60 (0x3C)
T1AF0 000:706.196 JLINK_ReadMemEx(0x4001903C, 0x4 Bytes, Flags = 0x02000004)
T1AF0 000:706.204   CPU_ReadMem(4 bytes @ 0x4001903C)
T1AF0 000:706.597   Data:  00 00 00 00
T1AF0 000:706.606 - 0.411ms returns 4 (0x4)
T1AF0 000:706.613 JLINK_ReadMemEx(0x40019100, 0x8 Bytes, Flags = 0x02000004)
T1AF0 000:706.620   CPU_ReadMem(8 bytes @ 0x40019100)
T1AF0 000:707.058   Data:  00 00 00 00 00 00 00 00
T1AF0 000:707.072 - 0.462ms returns 8 (0x8)
T1AF0 000:707.084 JLINK_ReadMemEx(0x40019108, 0x4 Bytes, Flags = 0x02000004)
T1AF0 000:707.095   CPU_ReadMem(4 bytes @ 0x40019108)
T1AF0 000:707.558   Data:  00 00 00 00
T1AF0 000:707.573 - 0.493ms returns 4 (0x4)
T1AF0 000:707.585 JLINK_ReadMemEx(0x40019200, 0xC Bytes, Flags = 0x02000004)
T1AF0 000:707.597   CPU_ReadMem(12 bytes @ 0x40019200)
T1AF0 000:708.072   Data:  00 00 00 00 00 00 00 00 00 00 00 00
T1AF0 000:708.085 - 0.504ms returns 12 (0xC)
T1AF0 000:708.098 JLINK_ReadMemEx(0x4001920C, 0x4 Bytes, Flags = 0x02000004)
T1AF0 000:708.109   CPU_ReadMem(4 bytes @ 0x4001920C)
T1AF0 000:708.498   Data:  00 00 00 00
T1AF0 000:708.507 - 0.411ms returns 4 (0x4)
T1AF0 000:742.104 JLINK_ReadMemEx(0x40000000, 0x34 Bytes, Flags = 0x02000004)
T1AF0 000:742.133   CPU_ReadMem(52 bytes @ 0x40000000)
T1AF0 000:743.035   Data:  10 48 64 01 5F 01 00 01 FC 8D FF 0E 01 00 02 01 ...
T1AF0 000:743.051 - 0.950ms returns 52 (0x34)
T1AF0 000:743.062 JLINK_ReadMemEx(0x40000034, 0x4 Bytes, Flags = 0x02000004)
T1AF0 000:743.074   CPU_ReadMem(4 bytes @ 0x40000034)
T1AF0 000:743.474   Data:  10 32 54 76
T1AF0 000:743.485 - 0.425ms returns 4 (0x4)
T1AF0 000:743.494 JLINK_ReadMemEx(0x40000040, 0x4 Bytes, Flags = 0x02000004)
T1AF0 000:743.503   CPU_ReadMem(4 bytes @ 0x40000040)
T1AF0 000:743.900   Data:  00 00 00 40
T1AF0 000:743.910 - 0.418ms returns 4 (0x4)
T1AF0 000:743.919 JLINK_ReadMemEx(0x40000044, 0x4 Bytes, Flags = 0x02000004)
T1AF0 000:743.927   CPU_ReadMem(4 bytes @ 0x40000044)
T1AF0 000:744.321   Data:  03 83 00 00
T1AF0 000:744.334 - 0.419ms returns 4 (0x4)
T1AF0 000:744.346 JLINK_ReadMemEx(0x40000054, 0x4 Bytes, Flags = 0x02000004)
T1AF0 000:744.357   CPU_ReadMem(4 bytes @ 0x40000054)
T1AF0 000:744.763   Data:  04 60 08 00
T1AF0 000:744.776 - 0.434ms returns 4 (0x4)
T1AF0 000:744.788 JLINK_ReadMemEx(0x40000060, 0x8 Bytes, Flags = 0x02000004)
T1AF0 000:744.799   CPU_ReadMem(8 bytes @ 0x40000060)
T1AF0 000:745.236   Data:  C0 FF 00 00 00 00 00 00
T1AF0 000:745.249 - 0.465ms returns 8 (0x8)
T1AF0 000:745.261 JLINK_ReadMemEx(0x40000068, 0x4 Bytes, Flags = 0x02000004)
T1AF0 000:745.272   CPU_ReadMem(4 bytes @ 0x40000068)
T1AF0 000:745.664   Data:  67 FB BF FF
T1AF0 000:745.674 - 0.416ms returns 4 (0x4)
T1AF0 000:745.683 JLINK_ReadMemEx(0x40000070, 0x4 Bytes, Flags = 0x02000004)
T1AF0 000:745.691   CPU_ReadMem(4 bytes @ 0x40000070)
T1AF0 000:746.073   Data:  00 00 00 00
T1AF0 000:746.083 - 0.403ms returns 4 (0x4)
T1AF0 000:746.092 JLINK_ReadMemEx(0x40000074, 0x4 Bytes, Flags = 0x02000004)
T1AF0 000:746.099   CPU_ReadMem(4 bytes @ 0x40000074)
T1AF0 000:746.496   Data:  00 00 FF FF
T1AF0 000:746.506 - 0.417ms returns 4 (0x4)
T1AF0 000:746.514 JLINK_ReadMemEx(0x4000007C, 0x4 Bytes, Flags = 0x02000004)
T1AF0 000:746.522   CPU_ReadMem(4 bytes @ 0x4000007C)
T1AF0 000:746.996   Data:  00 00 00 00
T1AF0 000:747.004 - 0.492ms returns 4 (0x4)
T1AF0 000:747.011 JLINK_ReadMemEx(0x40000080, 0x4 Bytes, Flags = 0x02000004)
T1AF0 000:747.018   CPU_ReadMem(4 bytes @ 0x40000080)
T1AF0 000:747.414   Data:  48 0F 00 00
T1AF0 000:747.427 - 0.419ms returns 4 (0x4)
T1AF0 000:747.439 JLINK_ReadMemEx(0x40000160, 0x8 Bytes, Flags = 0x02000004)
T1AF0 000:747.450   CPU_ReadMem(8 bytes @ 0x40000160)
T1AF0 000:747.889   Data:  00 00 00 92 C8 00 00 4A
T1AF0 000:747.903 - 0.468ms returns 8 (0x8)
T1AF0 000:747.915 JLINK_ReadMemEx(0x40000168, 0x4 Bytes, Flags = 0x02000004)
T1AF0 000:747.926   CPU_ReadMem(4 bytes @ 0x40000168)
T1AF0 000:748.332   Data:  00 00 00 00
T1AF0 000:748.345 - 0.434ms returns 4 (0x4)
T1AF0 000:748.357 JLINK_ReadMemEx(0x40000170, 0x8 Bytes, Flags = 0x02000004)
T1AF0 000:748.368   CPU_ReadMem(8 bytes @ 0x40000170)
T1AF0 000:748.836   Data:  00 00 00 00 00 00 00 00
T1AF0 000:748.860 - 0.507ms returns 8 (0x8)
T1AF0 000:748.875 JLINK_ReadMemEx(0x40000178, 0x4 Bytes, Flags = 0x02000004)
T1AF0 000:748.890   CPU_ReadMem(4 bytes @ 0x40000178)
T1AF0 000:749.312   Data:  00 00 00 00
T1AF0 000:749.329 - 0.458ms returns 4 (0x4)
T1AF0 000:749.343 JLINK_ReadMemEx(0x40000190, 0x4 Bytes, Flags = 0x02000004)
T1AF0 000:749.356   CPU_ReadMem(4 bytes @ 0x40000190)
T1AF0 000:749.777   Data:  00 00 00 00
T1AF0 000:749.785 - 0.445ms returns 4 (0x4)
T1AF0 000:749.795 JLINK_ReadMemEx(0x400001C4, 0x1C Bytes, Flags = 0x02000004)
T1AF0 000:749.805   CPU_ReadMem(28 bytes @ 0x400001C4)
T1AF0 000:750.413   Data:  01 00 00 00 18 00 10 16 15 00 00 00 02 00 00 00 ...
T1AF0 000:750.421 - 0.627ms returns 28 (0x1C)
T1AF0 000:750.428 JLINK_ReadMemEx(0x400001E0, 0x4 Bytes, Flags = 0x02000004)
T1AF0 000:750.435   CPU_ReadMem(4 bytes @ 0x400001E0)
T1AF0 000:750.826   Data:  77 11 00 00
T1AF0 000:750.834 - 0.407ms returns 4 (0x4)
T1AF0 000:750.842 JLINK_ReadMemEx(0x400001F0, 0x34 Bytes, Flags = 0x02000004)
T1AF0 000:750.848   CPU_ReadMem(52 bytes @ 0x400001F0)
T1AF0 000:751.685   Data:  00 00 00 00 00 00 00 00 00 00 00 00 00 00 00 00 ...
T1AF0 000:751.699 - 0.861ms returns 52 (0x34)
T1AF0 000:751.712 JLINK_ReadMemEx(0x40000224, 0x4 Bytes, Flags = 0x02000004)
T1AF0 000:751.724   CPU_ReadMem(4 bytes @ 0x40000224)
T1AF0 000:752.136   Data:  80 84 1E 00
T1AF0 000:752.149 - 0.441ms returns 4 (0x4)
T1AF0 000:752.164 JLINK_ReadMemEx(0x40000230, 0x4 Bytes, Flags = 0x02000004)
T1AF0 000:752.176   CPU_ReadMem(4 bytes @ 0x40000230)
T1AF0 000:752.571   Data:  00 20 4E 00
T1AF0 000:752.581 - 0.419ms returns 4 (0x4)
T1AF0 000:752.591 JLINK_ReadMemEx(0x40000234, 0x4 Bytes, Flags = 0x02000004)
T1AF0 000:752.599   CPU_ReadMem(4 bytes @ 0x40000234)
T1AF0 000:752.991   Data:  4D E9 01 00
T1AF0 000:753.000 - 0.412ms returns 4 (0x4)
T1AF0 002:105.498 JLINK_ReadMemEx(0x00000260, 0x3C Bytes, Flags = 0x02000000)
T1AF0 002:105.533   CPU_ReadMem(60 bytes @ 0x00000260)
T1AF0 002:106.497   Data:  0E 48 01 68 11 F0 01 0F 01 D1 0D 48 00 47 4F F0 ...
T1AF0 002:106.507 - 1.011ms returns 60 (0x3C)
T1AF0 002:106.515 JLINK_ReadMemEx(0x00000260, 0x2 Bytes, Flags = 0x02000000)
T1AF0 002:106.522   CPU_ReadMem(2 bytes @ 0x00000260)
T1AF0 002:106.995   Data:  0E 48
T1AF0 002:107.004 - 0.491ms returns 2 (0x2)
T1AF0 002:107.011 JLINK_ReadMemEx(0x00000262, 0x2 Bytes, Flags = 0x02000000)
T1AF0 002:107.018   CPU_ReadMem(2 bytes @ 0x00000262)
T1AF0 002:107.410   Data:  01 68
T1AF0 002:107.418 - 0.409ms returns 2 (0x2)
T1AF0 002:107.440 JLINK_ReadMemEx(0x00000262, 0x2 Bytes, Flags = 0x02000000)
T1AF0 002:107.448   CPU_ReadMem(2 bytes @ 0x00000262)
T1AF0 002:107.844   Data:  01 68
T1AF0 002:107.854 - 0.416ms returns 2 (0x2)
T1AF0 002:107.863 JLINK_ReadMemEx(0x00000264, 0x3C Bytes, Flags = 0x02000000)
T1AF0 002:107.871   CPU_ReadMem(60 bytes @ 0x00000264)
T1AF0 002:108.850   Data:  11 F0 01 0F 01 D1 0D 48 00 47 4F F0 00 70 01 68 ...
T1AF0 002:108.860 - 1.000ms returns 60 (0x3C)
T1AF0 002:108.868 JLINK_ReadMemEx(0x00000264, 0x2 Bytes, Flags = 0x02000000)
T1AF0 002:108.876   CPU_ReadMem(2 bytes @ 0x00000264)
T1AF0 002:109.313   Data:  11 F0
T1AF0 002:109.323 - 0.457ms returns 2 (0x2)
T1AF0 002:109.336 JLINK_ReadMemEx(0x00000264, 0x3C Bytes, Flags = 0x02000000)
T1AF0 002:109.345   CPU_ReadMem(60 bytes @ 0x00000264)
T1AF0 002:110.275   Data:  11 F0 01 0F 01 D1 0D 48 00 47 4F F0 00 70 01 68 ...
T1AF0 002:110.298 - 0.965ms returns 60 (0x3C)
T1AF0 002:110.311 JLINK_ReadMemEx(0x00000264, 0x2 Bytes, Flags = 0x02000000)
T1AF0 002:110.326   CPU_ReadMem(2 bytes @ 0x00000264)
T1AF0 002:110.756   Data:  11 F0
T1AF0 002:110.776 - 0.471ms returns 2 (0x2)
T1AF0 002:110.791 JLINK_ReadMemEx(0x00000266, 0x2 Bytes, Flags = 0x02000000)
T1AF0 002:110.807   CPU_ReadMem(2 bytes @ 0x00000266)
T1AF0 002:111.204   Data:  01 0F
T1AF0 002:111.214 - 0.424ms returns 2 (0x2)
T1AF0 002:111.227 JLINK_ReadMemEx(0x00000268, 0x3C Bytes, Flags = 0x02000000)
T1AF0 002:111.235   CPU_ReadMem(60 bytes @ 0x00000268)
T1AF0 002:112.156   Data:  01 D1 0D 48 00 47 4F F0 00 70 01 68 11 F0 01 0F ...
T1AF0 002:112.165 - 0.941ms returns 60 (0x3C)
T1AF0 002:112.172 JLINK_ReadMemEx(0x00000268, 0x2 Bytes, Flags = 0x02000000)
T1AF0 002:112.180   CPU_ReadMem(2 bytes @ 0x00000268)
T1AF0 002:112.570   Data:  01 D1
T1AF0 002:112.579 - 0.409ms returns 2 (0x2)
T1AF0 002:112.586 JLINK_ReadMemEx(0x0000026A, 0x2 Bytes, Flags = 0x02000000)
T1AF0 002:112.593   CPU_ReadMem(2 bytes @ 0x0000026A)
T1AF0 002:112.988   Data:  0D 48
T1AF0 002:113.004 - 0.421ms returns 2 (0x2)
T1AF0 002:113.019 JLINK_ReadMemEx(0x0000026A, 0x2 Bytes, Flags = 0x02000000)
T1AF0 002:113.028   CPU_ReadMem(2 bytes @ 0x0000026A)
T1AF0 002:113.424   Data:  0D 48
T1AF0 002:113.434 - 0.417ms returns 2 (0x2)
T1AF0 002:113.442 JLINK_ReadMemEx(0x0000026C, 0x3C Bytes, Flags = 0x02000000)
T1AF0 002:113.450   CPU_ReadMem(60 bytes @ 0x0000026C)
T1AF0 002:114.380   Data:  00 47 4F F0 00 70 01 68 11 F0 01 0F 03 D1 0A 48 ...
T1AF0 002:114.390 - 0.950ms returns 60 (0x3C)
T1AF0 002:114.398 JLINK_ReadMemEx(0x0000026C, 0x2 Bytes, Flags = 0x02000000)
T1AF0 002:114.406   CPU_ReadMem(2 bytes @ 0x0000026C)
T1AF0 002:114.793   Data:  00 47
T1AF0 002:114.803 - 0.408ms returns 2 (0x2)
T1AF0 002:114.817 JLINK_ReadMemEx(0x0000026C, 0x3C Bytes, Flags = 0x02000000)
T1AF0 002:114.826   CPU_ReadMem(60 bytes @ 0x0000026C)
T1AF0 002:115.759   Data:  00 47 4F F0 00 70 01 68 11 F0 01 0F 03 D1 0A 48 ...
T1AF0 002:115.771 - 0.958ms returns 60 (0x3C)
T1AF0 002:115.782 JLINK_ReadMemEx(0x0000026C, 0x2 Bytes, Flags = 0x02000000)
T1AF0 002:115.795   CPU_ReadMem(2 bytes @ 0x0000026C)
T1AF0 002:116.198   Data:  00 47
T1AF0 002:116.211 - 0.433ms returns 2 (0x2)
T1AF0 002:116.223 JLINK_ReadMemEx(0x0000026E, 0x2 Bytes, Flags = 0x02000000)
T1AF0 002:116.234   CPU_ReadMem(2 bytes @ 0x0000026E)
T1AF0 002:116.638   Data:  4F F0
T1AF0 002:116.651 - 0.432ms returns 2 (0x2)
T1AF0 002:116.669 JLINK_ReadMemEx(0x0000026E, 0x2 Bytes, Flags = 0x02000000)
T1AF0 002:116.681   CPU_ReadMem(2 bytes @ 0x0000026E)
T1AF0 002:117.078   Data:  4F F0
T1AF0 002:117.093 - 0.427ms returns 2 (0x2)
T1AF0 002:117.102 JLINK_ReadMemEx(0x00000270, 0x3C Bytes, Flags = 0x02000000)
T1AF0 002:117.113   CPU_ReadMem(60 bytes @ 0x00000270)
T1AF0 002:118.055   Data:  00 70 01 68 11 F0 01 0F 03 D1 0A 48 4F F0 01 01 ...
T1AF0 002:118.067 - 0.967ms returns 60 (0x3C)
T1AF0 002:118.074 JLINK_ReadMemEx(0x00000270, 0x2 Bytes, Flags = 0x02000000)
T1AF0 002:118.083   CPU_ReadMem(2 bytes @ 0x00000270)
T1AF0 002:118.477   Data:  00 70
T1AF0 002:118.486 - 0.413ms returns 2 (0x2)
T1AF0 002:368.505 JLINK_HasError()
T1AF0 002:368.522 JLINK_ReadReg(R0)
T1AF0 002:368.999 - 0.480ms returns 0x00000197
T1AF0 002:369.009 JLINK_ReadReg(R1)
T1AF0 002:369.015 - 0.008ms returns 0x00000000
T1AF0 002:369.021 JLINK_ReadReg(R2)
T1AF0 002:369.026 - 0.008ms returns 0x00000009
T1AF0 002:369.032 JLINK_ReadReg(R3)
T1AF0 002:369.038 - 0.008ms returns 0x00000030
T1AF0 002:369.044 JLINK_ReadReg(R4)
T1AF0 002:369.049 - 0.007ms returns 0x00001230
T1AF0 002:369.055 JLINK_ReadReg(R5)
T1AF0 002:369.060 - 0.007ms returns 0x00000000
T1AF0 002:369.066 JLINK_ReadReg(R6)
T1AF0 002:369.071 - 0.007ms returns 0x00000001
T1AF0 002:369.077 JLINK_ReadReg(R7)
T1AF0 002:369.083 - 0.007ms returns 0x40011000
T1AF0 002:369.088 JLINK_ReadReg(R8)
T1AF0 002:369.103 - 0.017ms returns 0x40102000
T1AF0 002:369.109 JLINK_ReadReg(R9)
T1AF0 002:369.114 - 0.007ms returns 0x00000000
T1AF0 002:369.120 JLINK_ReadReg(R10)
T1AF0 002:369.126 - 0.007ms returns 0x02000000
T1AF0 002:369.131 JLINK_ReadReg(R11)
T1AF0 002:369.137 - 0.007ms returns 0x0E4E1C00
T1AF0 002:369.142 JLINK_ReadReg(R12)
T1AF0 002:369.148 - 0.007ms returns 0x00000000
T1AF0 002:369.154 JLINK_ReadReg(R13 (SP))
T1AF0 002:369.159 - 0.008ms returns 0x20000400
T1AF0 002:369.165 JLINK_ReadReg(R14)
T1AF0 002:369.170 - 0.007ms returns 0xFFFFFFFF
T1AF0 002:369.176 JLINK_ReadReg(R15 (PC))
T1AF0 002:369.182 - 0.008ms returns 0x00000260
T1AF0 002:369.188 JLINK_ReadReg(XPSR)
T1AF0 002:369.193 - 0.007ms returns 0x01000000
T1AF0 002:369.199 JLINK_ReadReg(MSP)
T1AF0 002:369.204 - 0.007ms returns 0x20000400
T1AF0 002:369.210 JLINK_ReadReg(PSP)
T1AF0 002:369.215 - 0.008ms returns 0x20008000
T1AF0 002:369.222 JLINK_ReadReg(CFBP)
T1AF0 002:369.227 - 0.009ms returns 0x00000000
T1AF0 002:369.243 JLINK_ReadMemEx(0x00002000, 0x4 Bytes, Flags = 0x02000000)
T1AF0 002:369.261   CPU_ReadMem(4 bytes @ 0x00002000)
T1AF0 002:369.677   Data:  38 18 00 20
T1AF0 002:369.686 - 0.445ms returns 4 (0x4)
T1AF0 002:369.699 JLINK_HasError()
T1AF0 002:369.707 JLINK_WriteReg(MSP, 0x20001838)
T1AF0 002:369.714 - 0.009ms returns 0
T1AF0 002:369.729 JLINK_HasError()
T1AF0 002:369.735 JLINK_ReadReg(R0)
T1AF0 002:369.741 - 0.008ms returns 0x00000197
T1AF0 002:369.747 JLINK_ReadReg(R1)
T1AF0 002:369.752 - 0.007ms returns 0x00000000
T1AF0 002:369.758 JLINK_ReadReg(R2)
T1AF0 002:369.763 - 0.007ms returns 0x00000009
T1AF0 002:369.769 JLINK_ReadReg(R3)
T1AF0 002:369.774 - 0.007ms returns 0x00000030
T1AF0 002:369.780 JLINK_ReadReg(R4)
T1AF0 002:369.785 - 0.007ms returns 0x00001230
T1AF0 002:369.791 JLINK_ReadReg(R5)
T1AF0 002:369.796 - 0.007ms returns 0x00000000
T1AF0 002:369.802 JLINK_ReadReg(R6)
T1AF0 002:369.807 - 0.007ms returns 0x00000001
T1AF0 002:369.813 JLINK_ReadReg(R7)
T1AF0 002:369.818 - 0.007ms returns 0x40011000
T1AF0 002:369.824 JLINK_ReadReg(R8)
T1AF0 002:369.829 - 0.007ms returns 0x40102000
T1AF0 002:369.834 JLINK_ReadReg(R9)
T1AF0 002:369.840 - 0.007ms returns 0x00000000
T1AF0 002:369.846 JLINK_ReadReg(R10)
T1AF0 002:369.851 - 0.007ms returns 0x02000000
T1AF0 002:369.857 JLINK_ReadReg(R11)
T1AF0 002:369.862 - 0.007ms returns 0x0E4E1C00
T1AF0 002:369.868 JLINK_ReadReg(R12)
T1AF0 002:369.873 - 0.007ms returns 0x00000000
T1AF0 002:369.879 JLINK_ReadReg(R13 (SP))
T1AF0 002:369.884 - 0.007ms returns 0x20001838
T1AF0 002:369.890 JLINK_ReadReg(R14)
T1AF0 002:369.895 - 0.007ms returns 0xFFFFFFFF
T1AF0 002:369.901 JLINK_ReadReg(R15 (PC))
T1AF0 002:369.906 - 0.007ms returns 0x00000260
T1AF0 002:369.912 JLINK_ReadReg(XPSR)
T1AF0 002:369.917 - 0.007ms returns 0x01000000
T1AF0 002:369.923 JLINK_ReadReg(MSP)
T1AF0 002:369.928 - 0.007ms returns 0x20001838
T1AF0 002:369.934 JLINK_ReadReg(PSP)
